  can0    380001  [8] 24 02 03 04 05 06 07 08
  can0    380006  [0]
  can0    380001  [8] 25 02 03 04 05 06 07 08
  can0  10383007  [1] 03
  can0  10383006  [0]
  can0  10683007  [0]
  can0  10683006  [6] 00 00 00 00 02 00
  can0  10383007  [1] 00
  can0  10383006  [0]
  can0    380006  [0]
  can0  10283007  [4] 01 83 0A 0A
  can0  10283006  [0]
  can0  10283007  [4] 02 83 0A 0A
  can0  10283006  [0]
  can0  10283007  [8] 03 77 00 00 00 00 00 00
  can0  10283006  [0]
  can0  10283007  [8] 04 19 00 00 00 00 00 00
  can0  10283006  [0]
  can0  10283007  [8] 05 E8 00 00 00 00 00 00
  can0  10283006  [0]
  can0  10283007  [8] 06 68 00 00 00 00 00 00
  can0  10283006  [0]
  can0  10283007  [8] 07 00 C8 1E 03 01 F4 01
  can0  10283006  [0]
  can0  10283007  [8] 08 51 FF FF FF 38 00 00
  can0  10283006  [0]
  can0  10283007  [5] 09 00 00 13 88
  can0  10283006  [0]
  can0  10283007  [8] 0A 01 00 00 00 00 3A 98
  can0  10283006  [0]
  can0  10283007  [7] 0B 00 00 23 28 00 C8
  can0  10283006  [0]
  can0  10283007  [7] 0C 00 00 00 00 00 32
  can0  10283006  [0]
  can0  10283007  [4] 20 0E 02 D0
  can0  10283006  [0]
  can0    380001  [8] 26 02 03 04 05 06 07 08
  can0  10283007  [4] 21 0D 40 08
  can0  10283006  [0]
  can0  10283007  [4] 22 0A 82 02
  can0  10283006  [0]
  can0  10283007  [4] 23 09 01 B4
  can0  10283006  [0]
  can0  10283007  [6] 81 20 00 32 03 E8
  can0  10283006  [0]
  can0    380006  [0]
  can0  10283007  [5] 82 03 E8 00 C8
  can0  10283006  [0]
  can0  10283007  [5] 83 03 E8 00 C8
  can0  10283006  [0]
  can0  10283007  [6] 91 20 00 32 03 E8
  can0  10283006  [0]
  can0  10283007  [5] 92 07 D0 00 32
  can0  10283006  [0]
  can0  10283007  [5] 93 07 D0 00 32
  can0  10283006  [0]
  can0  10283007  [6] A1 20 00 32 05 DC
  can0  10283006  [0]
  can0  10283007  [5] A2 0B B8 00 32
  can0  10283006  [0]
  can0  10283007  [5] A3 0B B8 00 32
  can0  10283006  [0]
  can0  10283007  [6] B1 10 00 32 07 D0
  can0  10283006  [0]
  can0  10283007  [5] B2 0F A0 00 32
  can0  10283006  [0]
  can0  10283007  [5] B3 0F A0 00 32
  can0  10283006  [0]
  can0  10283007  [6] C1 10 00 32 0B B8
  can0  10283006  [0]
  can0  10283007  [5] C2 17 70 00 32
  can0  10283006  [0]
  can0    380001  [8] 27 02 03 04 05 06 07 08
  can0  10283007  [5] C3 17 70 00 32
  can0  10283006  [0]
  can0  10383007  [1] 03
  can0  10383006  [0]
  can0  10383007  [1] 03
  can0  10383006  [0]
  can0  10483007  [1] 00
  can0  10483006  [1] 00
  can0    380006  [0]
  can0   8103006  [6] 00 07 00 14 00 00
  can0   8103006  [6] 00 07 00 0C 00 00
  can0  10183006  [6] 01 03 00 00 00 43
  can0  10383007  [1] 00
  can0  10383006  [0]
  can0  10283007  [4] 01 01 0A 0A
  can0  10283006  [0]
  can0  10283007  [4] 02 01 0A 0A
  can0  10283006  [0]
  can0  10283007  [8] 03 AF 00 00 00 00 00 00
  can0  10283006  [0]
  can0  10283007  [8] 04 E9 00 00 00 00 00 00
  can0  10283006  [0]
  can0  10283007  [8] 05 A0 00 00 00 00 00 00
  can0  10283006  [0]
  can0    380001  [8] 28 02 03 04 05 06 07 08
  can0  10283007  [8] 06 40 00 00 00 00 00 00
  can0  10283006  [0]
  can0  10283007  [8] 07 00 C8 1E 03 01 F4 01
  can0  10283006  [0]
  can0  10283007  [8] 08 53 FF FF FF 38 00 00
  can0  10283006  [0]
  can0  10283007  [5] 09 00 00 13 88
  can0  10283006  [0]
  can0    380006  [0]
  can0  10283007  [8] 0A 01 00 00 00 00 3A 98
  can0  10283006  [0]
  can0  10283007  [7] 0B 00 00 23 28 00 C8
  can0  10283006  [0]
  can0  10283007  [7] 0C 00 00 00 00 00 32
  can0  10283006  [0]
  can0  10283007  [4] 20 0E 02 D0
  can0  10283006  [0]
  can0  10283007  [4] 21 0D 40 08
  can0  10283006  [0]
  can0  10283007  [4] 22 0A 82 02
  can0  10283006  [0]
  can0  10283007  [4] 23 09 01 B4
  can0  10283006  [0]
  can0  10283007  [6] 81 20 00 32 03 E8
  can0  10283006  [0]
  can0  10283007  [5] 82 03 E8 00 C8
  can0  10283006  [0]
  can0  10283007  [5] 83 03 E8 00 C8
  can0  10283006  [0]
  can0  10283007  [6] 91 20 00 32 03 E8
  can0  10283006  [0]
  can0  10283007  [5] 92 07 D0 00 32
  can0  10283006  [0]
  can0  10283007  [5] 93 07 D0 00 32
  can0  10283006  [0]
  can0    380001  [8] 29 02 03 04 05 06 07 08
  can0  10283007  [6] A1 20 00 32 05 DC
  can0  10283006  [0]
  can0  10283007  [5] A2 0B B8 00 32
  can0  10283006  [0]
  can0  10283007  [5] A3 0B B8 00 32
  can0  10283006  [0]
  can0  10283007  [6] B1 10 00 32 07 D0
  can0  10283006  [0]
  can0    380006  [0]
  can0  10283007  [5] B2 0F A0 00 32
  can0  10283006  [0]
  can0  10283007  [5] B3 0F A0 00 32
  can0  10283006  [0]
  can0  10283007  [6] C1 10 00 32 0B B8
  can0  10283006  [0]
  can0  10283007  [5] C2 17 70 00 32
  can0  10283006  [0]
  can0  10283007  [5] C3 17 70 00 32
  can0  10283006  [0]
  can0  10383007  [1] 03
  can0  10383006  [0]
  can0  10383007  [1] 03
  can0  10383006  [0]
  can0  10483007  [1] 00
  can0  10483006  [1] 00
  can0    380001  [8] 2A 02 03 04 05 06 07 08
  can0    380006  [0]
  can0  10183006  [6] 00 01 00 00 00 00
  can0  10683007  [0]
  can0  10683006  [6] 00 00 00 00 01 00
  can0  10383007  [1] 00
  can0  10383006  [0]
  can0    380001  [8] 2B 02 03 04 05 06 07 08
  can0  10283007  [4] 01 83 0A 0A
  can0  10283006  [0]
  can0  10283007  [4] 02 03 0A 0A
  can0  10283006  [0]
  can0  10283007  [8] 03 1F 00 00 00 00 00 00
  can0  10283006  [0]
  can0  10283007  [8] 04 A1 00 00 00 00 00 00
  can0  10283006  [0]
  can0    380006  [0]
  can0  10283007  [8] 05 D8 00 00 00 00 00 00
  can0  10283006  [0]
  can0  10283007  [8] 06 6C 00 00 00 00 00 00
  can0  10283006  [0]
  can0  10283007  [8] 07 00 C8 1E 03 01 F4 01
  can0  10283006  [0]
  can0  10283007  [8] 08 5D FF FF FF 38 00 00
  can0  10283006  [0]
  can0  10283007  [5] 09 00 00 13 88
  can0  10283006  [0]
  can0  10283007  [8] 0A 01 00 00 00 00 3A 98
  can0  10283006  [0]
  can0  10283007  [7] 0B 00 00 23 28 00 C8
  can0  10283006  [0]
  can0  10283007  [7] 0C 00 00 00 00 00 32
  can0  10283006  [0]
  can0  10283007  [4] 20 0E 02 D0
  can0  10283006  [0]
  can0  10283007  [4] 21 0D 40 08
  can0  10283006  [0]
  can0  10283007  [4] 22 0A 82 02
  can0  10283006  [0]
  can0  10283007  [4] 23 09 01 B4
  can0  10283006  [0]
  can0  10283007  [6] 81 20 00 32 03 E8
  can0  10283006  [0]
  can0    380001  [8] 2C 02 03 04 05 06 07 08
  can0  10283007  [5] 82 03 E8 00 C8
  can0  10283006  [0]
  can0  10283007  [5] 83 03 E8 00 C8
  can0  10283006  [0]
  can0  10283007  [6] 91 20 00 32 03 E8
  can0  10283006  [0]
  can0    380006  [0]
  can0  10283007  [5] 92 07 D0 00 32
  can0  10283006  [0]
  can0  10283007  [5] 93 07 D0 00 32
  can0  10283006  [0]
  can0  10283007  [6] A1 20 00 32 05 DC
  can0  10283006  [0]
  can0  10283007  [5] A2 0B B8 00 32
  can0  10283006  [0]
  can0  10283007  [5] A3 0B B8 00 32
  can0  10283006  [0]
  can0  10283007  [6] B1 10 00 32 07 D0
  can0  10283006  [0]
  can0  10283007  [5] B2 0F A0 00 32
  can0  10283006  [0]
  can0  10283007  [5] B3 0F A0 00 32
  can0  10283006  [0]
  can0  10283007  [6] C1 10 00 32 0B B8
  can0  10283006  [0]
  can0  10283007  [5] C2 17 70 00 32
  can0  10283006  [0]
  can0  10283007  [5] C3 17 70 00 32
  can0  10283006  [0]
  can0  10383007  [1] 03
  can0  10383006  [0]
  can0  10383007  [1] 03
  can0  10383006  [0]
  can0  10483007  [1] 00
  can0  10483006  [1] 00
  can0    380001  [8] 2D 02 03 04 05 06 07 08
  can0    380006  [0]
  can0   8103006  [6] 00 07 00 14 00 00
  can0   8103006  [6] 00 07 00 0C 00 00
  can0  10183006  [6] 01 03 00 00 00 5D
  can0  10383007  [1] 00
  can0  10383006  [0]
  can0  10283007  [4] 01 81 0A 0A
  can0  10283006  [0]
  can0  10283007  [4] 02 81 0A 0A
  can0  10283006  [0]
  can0  10283007  [8] 03 2F 00 00 00 00 00 00
  can0  10283006  [0]
  can0  10283007  [8] 04 B1 00 00 00 00 00 00
  can0  10283006  [0]
  can0  10283007  [8] 05 B0 00 00 00 00 00 00
  can0  10283006  [0]
  can0  10283007  [8] 06 48 00 00 00 00 00 00
  can0  10283006  [0]
  can0  10283007  [8] 07 00 C8 1E 03 01 F4 01
  can0  10283006  [0]
  can0    380001  [8] 2E 02 03 04 05 06 07 08
  can0  10283007  [8] 08 55 FF FF FF 38 00 00
  can0  10283006  [0]
  can0  10283007  [5] 09 00 00 13 88
  can0  10283006  [0]
  can0  10283007  [8] 0A 01 00 00 00 00 3A 98
  can0  10283006  [0]
  can0    380006  [0]
  can0  10283007  [7] 0B 00 00 23 28 00 C8
  can0  10283006  [0]
  can0  10283007  [7] 0C 00 00 00 00 00 32
  can0  10283006  [0]
  can0  10283007  [4] 20 0E 02 D0
  can0  10283006  [0]
  can0  10283007  [4] 21 0D 40 08
  can0  10283006  [0]
  can0  10283007  [4] 22 0A 82 02
  can0  10283006  [0]
  can0  10283007  [4] 23 09 01 B4
  can0  10283006  [0]
  can0  10283007  [6] 81 20 00 32 03 E8
  can0  10283006  [0]
  can0  10283007  [5] 82 03 E8 00 C8
  can0  10283006  [0]
  can0  10283007  [5] 83 03 E8 00 C8
  can0  10283006  [0]
  can0  10283007  [6] 91 20 00 32 03 E8
  can0  10283006  [0]
  can0  10283007  [5] 92 07 D0 00 32
  can0  10283006  [0]
  can0  10283007  [5] 93 07 D0 00 32
  can0  10283006  [0]
  can0  10283007  [6] A1 20 00 32 05 DC
  can0  10283006  [0]
  can0  10283007  [5] A2 0B B8 00 32
  can0  10283006  [0]
  can0    380001  [8] 2F 02 03 04 05 06 07 08
  can0  10283007  [5] A3 0B B8 00 32
  can0  10283006  [0]
  can0  10283007  [6] B1 10 00 32 07 D0
  can0  10283006  [0]
  can0  10283007  [5] B2 0F A0 00 32
  can0  10283006  [0]
  can0    380006  [0]
  can0  10283007  [5] B3 0F A0 00 32
  can0  10283006  [0]
  can0  10283007  [6] C1 10 00 32 0B B8
  can0  10283006  [0]
  can0  10283007  [5] C2 17 70 00 32
  can0  10283006  [0]
  can0  10283007  [5] C3 17 70 00 32
  can0  10283006  [0]
  can0  10383007  [1] 03
  can0  10383006  [0]
  can0  10383007  [1] 03
  can0  10383006  [0]
  can0  10483007  [1] 00
  can0  10483006  [1] 00
  can0    380001  [8] 30 02 03 04 05 06 07 08
  can0    380006  [0]
  can0  10183006  [6] 00 01 00 00 00 00
  can0  10683007  [0]
  can0  10683006  [6] 00 00 00 00 01 00
  can0  10383007  [1] 00
  can0  10383006  [0]
  can0    380001  [8] 31 02 03 04 05 06 07 08
  can0  10283007  [4] 01 83 0A 0A
  can0  10283006  [0]
  can0  10283007  [4] 02 03 0A 0A
  can0  10283006  [0]
  can0  10283007  [8] 03 9F 00 00 00 00 00 00
  can0  10283006  [0]
  can0    380006  [0]
  can0  10283007  [8] 04 71 00 00 00 00 00 00
  can0  10283006  [0]
  can0  10283007  [8] 05 D8 00 00 00 00 00 00
  can0  10283006  [0]
  can0  10283007  [8] 06 34 00 00 00 00 00 00
  can0  10283006  [0]
  can0  10283007  [8] 07 00 C8 1E 03 01 F4 01
  can0  10283006  [0]
  can0  10283007  [8] 08 5B FF FF FF 38 00 00
  can0  10283006  [0]
  can0  10283007  [5] 09 00 00 13 88
  can0  10283006  [0]
  can0  10283007  [8] 0A 01 00 00 00 00 3A 98
  can0  10283006  [0]
  can0  10283007  [7] 0B 00 00 23 28 00 C8
  can0  10283006  [0]
  can0  10283007  [7] 0C 00 00 00 00 00 32
  can0  10283006  [0]
  can0  10283007  [4] 20 0E 02 D0
  can0  10283006  [0]
  can0  10283007  [4] 21 0D 40 08
  can0  10283006  [0]
  can0  10283007  [4] 22 0A 82 02
  can0  10283006  [0]
  can0  10283007  [4] 23 09 01 B4
  can0  10283006  [0]
  can0  10283007  [6] 81 20 00 32 03 E8
  can0  10283006  [0]
  can0    380001  [8] 32 02 03 04 05 06 07 08
  can0  10283007  [5] 82 03 E8 00 C8
  can0  10283006  [0]
  can0  10283007  [5] 83 03 E8 00 C8
  can0  10283006  [0]
  can0    380006  [0]
  can0  10283007  [6] 91 20 00 32 03 E8
  can0  10283006  [0]
  can0  10283007  [5] 92 07 D0 00 32
  can0  10283006  [0]
  can0  10283007  [5] 93 07 D0 00 32
  can0  10283006  [0]
  can0  10283007  [6] A1 20 00 32 05 DC
  can0  10283006  [0]
  can0  10283007  [5] A2 0B B8 00 32
  can0  10283006  [0]
  can0  10283007  [5] A3 0B B8 00 32
  can0  10283006  [0]
  can0  10283007  [6] B1 10 00 32 07 D0
  can0  10283006  [0]
  can0  10283007  [5] B2 0F A0 00 32
  can0  10283006  [0]
  can0  10283007  [5] B3 0F A0 00 32
  can0  10283006  [0]
  can0  10283007  [6] C1 10 00 32 0B B8
  can0  10283006  [0]
  can0  10283007  [5] C2 17 70 00 32
  can0  10283006  [0]
  can0  10283007  [5] C3 17 70 00 32
  can0  10283006  [0]
  can0  10383007  [1] 03
  can0  10383006  [0]
  can0  10383007  [1] 03
  can0  10383006  [0]
  can0  10483007  [1] 00
  can0  10483006  [1] 00
  can0    380001  [8] 33 02 03 04 05 06 07 08
  can0    380006  [0]
  can0   8103006  [6] 00 07 00 14 00 00
  can0   8103006  [6] 00 07 00 0C 00 00
  can0  10183006  [6] 01 03 00 00 00 59
  can0  10383007  [1] 00
  can0  10383006  [0]
  can0  10283007  [4] 01 01 0A 0A
  can0  10283006  [0]
  can0  10283007  [4] 02 01 0A 0A
  can0  10283006  [0]
  can0  10283007  [8] 03 87 00 00 00 00 00 00
  can0  10283006  [0]
  can0  10283007  [8] 04 21 00 00 00 00 00 00
  can0  10283006  [0]
  can0  10283007  [8] 05 78 00 00 00 00 00 00
  can0  10283006  [0]
  can0  10283007  [8] 06 48 00 00 00 00 00 00
  can0  10283006  [0]
  can0  10283007  [8] 07 00 C8 1E 03 01 F4 01
  can0  10283006  [0]
  can0    380001  [8] 34 02 03 04 05 06 07 08
  can0  10283007  [8] 08 55 FF FF FF 38 00 00
  can0  10283006  [0]
  can0  10283007  [5] 09 00 00 13 88
  can0  10283006  [0]
  can0  10283007  [8] 0A 01 00 00 00 00 3A 98
  can0  10283006  [0]
  can0    380006  [0]
  can0  10283007  [7] 0B 00 00 23 28 00 C8
  can0  10283006  [0]
  can0  10283007  [7] 0C 00 00 00 00 00 32
  can0  10283006  [0]
  can0  10283007  [4] 20 0E 02 D0
  can0  10283006  [0]
  can0  10283007  [4] 21 0D 40 08
  can0  10283006  [0]
  can0  10283007  [4] 22 0A 82 02
  can0  10283006  [0]
  can0  10283007  [4] 23 09 01 B4
  can0  10283006  [0]
  can0  10283007  [6] 81 20 00 32 03 E8
  can0  10283006  [0]
  can0  10283007  [5] 82 03 E8 00 C8
  can0  10283006  [0]
  can0  10283007  [5] 83 03 E8 00 C8
  can0  10283006  [0]
  can0  10283007  [6] 91 20 00 32 03 E8
  can0  10283006  [0]
  can0  10283007  [5] 92 07 D0 00 32
  can0  10283006  [0]
  can0  10283007  [5] 93 07 D0 00 32
  can0  10283006  [0]
  can0  10283007  [6] A1 20 00 32 05 DC
  can0  10283006  [0]
  can0  10283007  [5] A2 0B B8 00 32
  can0  10283006  [0]
  can0    380001  [8] 35 02 03 04 05 06 07 08
  can0  10283007  [5] A3 0B B8 00 32
  can0  10283006  [0]
  can0  10283007  [6] B1 10 00 32 07 D0
  can0  10283006  [0]
  can0    380006  [0]
  can0  10283007  [5] B2 0F A0 00 32
  can0  10283006  [0]
  can0  10283007  [5] B3 0F A0 00 32
  can0  10283006  [0]
  can0  10283007  [6] C1 10 00 32 0B B8
  can0  10283006  [0]
  can0  10283007  [5] C2 17 70 00 32
  can0  10283006  [0]
  can0  10283007  [5] C3 17 70 00 32
  can0  10283006  [0]
  can0  10383007  [1] 03
  can0  10383006  [0]
  can0  10383007  [1] 03
  can0  10383006  [0]
  can0  10483007  [1] 00
  can0  10483006  [1] 00
  can0    380001  [8] 36 02 03 04 05 06 07 08
  can0    380006  [0]
  can0   8103006  [6] 00 07 00 14 00 00
  can0   8103006  [6] 00 07 00 0C 00 00
  can0  10183006  [6] 01 03 00 00 00 FC
  can0  10683007  [0]
  can0  10683006  [6] 00 00 00 FC 03 00
  can0    380001  [8] 37 02 03 04 05 06 07 08
  can0    380006  [0]
  can0    380001  [8] 38 02 03 04 05 06 07 08
  can0    380006  [0]
  can0    380001  [8] 39 02 03 04 05 06 07 08
  can0    380006  [0]
  can0    380001  [8] 3A 02 03 04 05 06 07 08
  can0    380006  [0]
  can0    380001  [8] 3B 02 03 04 05 06 07 08
  can0    380006  [0]
  can0    380001  [8] 3C 02 03 04 05 06 07 08
  can0    380006  [0]
  can0    380001  [8] 3D 02 03 04 05 06 07 08
  can0    380006  [0]
  can0    380001  [8] 3E 02 03 04 05 06 07 08
  can0    380006  [0]
  can0    380001  [8] 3F 02 03 04 05 06 07 08
  can0    380006  [0]
